 frequency       v(Vout)         v(Vout)        
 1.00000000e+00 -9.99582796e-01  1.02849890e-06 
 1.12201845e+00 -9.99582796e-01  1.15399475e-06 
 1.25892541e+00 -9.99582796e-01  1.29480340e-06 
 1.41253754e+00 -9.99582796e-01  1.45279331e-06 
 1.58489319e+00 -9.99582796e-01  1.63006091e-06 
 1.77827941e+00 -9.99582796e-01  1.82895842e-06 
 1.99526231e+00 -9.99582796e-01  2.05212510e-06 
 2.23872114e+00 -9.99582796e-01  2.30252223e-06 
 2.51188643e+00 -9.99582796e-01  2.58347244e-06 
 2.81838293e+00 -9.99582796e-01  2.89870375e-06 
 3.16227766e+00 -9.99582796e-01  3.25239910e-06 
 3.54813389e+00 -9.99582796e-01  3.64925181e-06 
 3.98107171e+00 -9.99582796e-01  4.09452788e-06 
 4.46683592e+00 -9.99582796e-01  4.59413584e-06 
 5.01187234e+00 -9.99582796e-01  5.15470520e-06 
 5.62341325e+00 -9.99582796e-01  5.78367436e-06 
 6.30957344e+00 -9.99582796e-01  6.48938936e-06 
 7.07945784e+00 -9.99582796e-01  7.28121462e-06 
 7.94328235e+00 -9.99582796e-01  8.16965717e-06 
 8.91250938e+00 -9.99582796e-01  9.16650611e-06 
 1.00000000e+01 -9.99582796e-01  1.02849890e-05 
 1.12201845e+01 -9.99582796e-01  1.15399475e-05 
 1.25892541e+01 -9.99582796e-01  1.29480340e-05 
 1.41253754e+01 -9.99582796e-01  1.45279331e-05 
 1.58489319e+01 -9.99582796e-01  1.63006091e-05 
 1.77827941e+01 -9.99582796e-01  1.82895842e-05 
 1.99526231e+01 -9.99582796e-01  2.05212510e-05 
 2.23872114e+01 -9.99582796e-01  2.30252223e-05 
 2.51188643e+01 -9.99582796e-01  2.58347244e-05 
 2.81838293e+01 -9.99582795e-01  2.89870375e-05 
 3.16227766e+01 -9.99582795e-01  3.25239910e-05 
 3.54813389e+01 -9.99582795e-01  3.64925181e-05 
 3.98107171e+01 -9.99582795e-01  4.09452787e-05 
 4.46683592e+01 -9.99582794e-01  4.59413583e-05 
 5.01187234e+01 -9.99582794e-01  5.15470518e-05 
 5.62341325e+01 -9.99582793e-01  5.78367434e-05 
 6.30957344e+01 -9.99582792e-01  6.48938934e-05 
 7.07945784e+01 -9.99582791e-01  7.28121458e-05 
 7.94328235e+01 -9.99582790e-01  8.16965712e-05 
 8.91250938e+01 -9.99582788e-01  9.16650604e-05 
 1.00000000e+02 -9.99582786e-01  1.02849889e-04 
 1.12201845e+02 -9.99582783e-01  1.15399473e-04 
 1.25892541e+02 -9.99582780e-01  1.29480338e-04 
 1.41253754e+02 -9.99582776e-01  1.45279329e-04 
 1.58489319e+02 -9.99582771e-01  1.63006087e-04 
 1.77827941e+02 -9.99582764e-01  1.82895836e-04 
 1.99526231e+02 -9.99582756e-01  2.05212502e-04 
 2.23872114e+02 -9.99582745e-01  2.30252212e-04 
 2.51188643e+02 -9.99582732e-01  2.58347228e-04 
 2.81838293e+02 -9.99582715e-01  2.89870352e-04 
 3.16227766e+02 -9.99582694e-01  3.25239878e-04 
 3.54813389e+02 -9.99582668e-01  3.64925136e-04 
 3.98107171e+02 -9.99582635e-01  4.09452724e-04 
 4.46683592e+02 -9.99582593e-01  4.59413494e-04 
 5.01187234e+02 -9.99582540e-01  5.15470393e-04 
 5.62341325e+02 -9.99582474e-01  5.78367256e-04 
 6.30957344e+02 -9.99582390e-01  6.48938683e-04 
 7.07945784e+02 -9.99582285e-01  7.28121104e-04 
 7.94328235e+02 -9.99582153e-01  8.16965212e-04 
 8.91250938e+02 -9.99581986e-01  9.16649897e-04 
 1.00000000e+03 -9.99581777e-01  1.02849789e-03 
 1.12201845e+03 -9.99581513e-01  1.15399332e-03 
 1.25892541e+03 -9.99581181e-01  1.29480139e-03 
 1.41253754e+03 -9.99580762e-01  1.45279047e-03 
 1.58489319e+03 -9.99580236e-01  1.63005689e-03 
 1.77827941e+03 -9.99579573e-01  1.82895275e-03 
 1.99526231e+03 -9.99578738e-01  2.05211709e-03 
 2.23872114e+03 -9.99577687e-01  2.30251092e-03 
 2.51188643e+03 -9.99576364e-01  2.58345645e-03 
 2.81838293e+03 -9.99574699e-01  2.89868117e-03 
 3.16227766e+03 -9.99572602e-01  3.25236720e-03 
 3.54813389e+03 -9.99569963e-01  3.64920675e-03 
 3.98107171e+03 -9.99566640e-01  4.09446423e-03 
 4.46683592e+03 -9.99562457e-01  4.59404594e-03 
 5.01187234e+03 -9.99557191e-01  5.15457821e-03 
 5.62341325e+03 -9.99550561e-01  5.78349498e-03 
 6.30957344e+03 -9.99542215e-01  6.48913599e-03 
 7.07945784e+03 -9.99531707e-01  7.28085672e-03 
 7.94328235e+03 -9.99518480e-01  8.16915164e-03 
 8.91250938e+03 -9.99501828e-01  9.16579204e-03 
 1.00000000e+04 -9.99480866e-01  1.02839804e-02 
 1.12201845e+04 -9.99454477e-01  1.15385228e-02 
 1.25892541e+04 -9.99421256e-01  1.29460216e-02 
 1.41253754e+04 -9.99379437e-01  1.45250907e-02 
 1.58489319e+04 -9.99326796e-01  1.62965942e-02 
 1.77827941e+04 -9.99260531e-01  1.82839134e-02 
 1.99526231e+04 -9.99177121e-01  2.05132413e-02 
 2.23872114e+04 -9.99072133e-01  2.30139095e-02 
 2.51188643e+04 -9.98939991e-01  2.58187466e-02 
 2.81838293e+04 -9.98773682e-01  2.89644720e-02 
 3.16227766e+04 -9.98564387e-01  3.24921228e-02 
 3.54813389e+04 -9.98301019e-01  3.64475145e-02 
 3.98107171e+04 -9.97969648e-01  4.08817296e-02 
 4.46683592e+04 -9.97552778e-01  4.58516288e-02 
 5.01187234e+04 -9.97028444e-01  5.14203695e-02 
 5.62341325e+04 -9.96369099e-01  5.76579135e-02 
 6.30957344e+04 -9.95540222e-01  6.46414912e-02 
 7.07945784e+04 -9.94498608e-01  7.24559763e-02 
 7.94328235e+04 -9.93190266e-01  8.11941037e-02 
 8.91250938e+04 -9.91547852e-01  9.09564327e-02 
 1.00000000e+05 -9.89487574e-01  1.01850922e-01 
 1.12201845e+05 -9.86905493e-01  1.13991929e-01 
 1.25892541e+05 -9.83673179e-01  1.27498377e-01 
 1.41253754e+05 -9.79632712e-01  1.42490767e-01 
 1.58489319e+05 -9.74591128e-01  1.59086586e-01 
 1.77827941e+05 -9.68314498e-01  1.77393592e-01 
 1.99526231e+05 -9.60522098e-01  1.97500346e-01 
 2.23872114e+05 -9.50881402e-01  2.19463307e-01 
 2.51188643e+05 -9.39005103e-01  2.43289864e-01 
 2.81838293e+05 -9.24451914e-01  2.68916929e-01 
 3.16227766e+05 -9.06733541e-01  2.96185253e-01 
 3.54813389e+05 -8.85330822e-01  3.24810670e-01 
 3.98107171e+05 -8.59722232e-01  3.54355064e-01 
 4.46683592e+05 -8.29427490e-01  3.84202021e-01 
 5.01187234e+05 -7.94067140e-01  4.13544525e-01 
 5.62341325e+05 -7.53435359e-01  4.41393942e-01 
 6.30957344e+05 -7.07577867e-01  4.66619542e-01 
 7.07945784e+05 -6.56860591e-01  4.88024436e-01 
 7.94328235e+05 -6.02010146e-01  5.04456112e-01 
 8.91250938e+05 -5.44107341e-01  5.14938630e-01 
 1.00000000e+06 -4.84522474e-01  5.18802462e-01 
 1.12201845e+06 -4.24795597e-01  5.15782329e-01 
 1.25892541e+06 -3.66481767e-01  5.06057612e-01 
 1.41253754e+06 -3.10993122e-01  4.90224161e-01 
 1.58489319e+06 -2.59470802e-01  4.69205309e-01 
 1.77827941e+06 -2.12709447e-01  4.44125590e-01 
 1.99526231e+06 -1.71140579e-01  4.16176846e-01 
 2.23872114e+06 -1.34865843e-01  3.86502321e-01 
 2.51188643e+06 -1.03722103e-01  3.56113900e-01 
 2.81838293e+06 -7.73590402e-02  3.25846124e-01 
 3.16227766e+06 -5.53138607e-02  2.96342219e-01 
 3.54813389e+06 -3.70738599e-02  2.68063212e-01 
 3.98107171e+06 -2.21232365e-02  2.41310710e-01 
 4.46683592e+06 -9.97451659e-03  2.16255601e-01 
 5.01187234e+06 -1.87084312e-04  1.92967278e-01 
 5.62341325e+06  7.62399202e-03  1.71440267e-01 
 6.30957344e+06  1.37857973e-02  1.51616838e-01 
 7.07945784e+06  1.85695781e-02  1.33405258e-01 
 7.94328235e+06  2.21950687e-02  1.16694011e-01 
 8.91250938e+06  2.48358212e-02  1.01362523e-01 
 1.00000000e+07  2.66245986e-02  8.72890181e-02 
 1.12201845e+07  2.76580183e-02  7.43561885e-02 
 1.25892541e+07  2.79995699e-02  6.24556125e-02 
 1.41253754e+07  2.76801951e-02  5.14928450e-02 
 1.58489319e+07  2.66969484e-02  4.13968126e-02 
 1.77827941e+07  2.50146276e-02  3.21380250e-02 
 1.99526231e+07  2.25818903e-02  2.37552710e-02 
 2.23872114e+07  1.93739272e-02  1.63769350e-02 
 2.51188643e+07  1.54584282e-02  1.02106325e-02 
 2.81838293e+07  1.10569177e-02  5.48048226e-03 
 3.16227766e+07  6.55805158e-03  2.31661034e-03 
 3.54813389e+07  2.44369731e-03  6.38414702e-04 
 3.98107171e+07 -8.70551584e-04  1.09851585e-04 
 4.46683592e+07 -3.19822632e-03  2.30338289e-04 
 5.01187234e+07 -4.62903395e-03  5.21680092e-04 
 5.62341325e+07 -5.43035457e-03  6.79700905e-04 
 6.30957344e+07 -5.89599650e-03  6.03349873e-04 
 7.07945784e+07 -6.24519873e-03  3.29319256e-04 
 7.94328235e+07 -6.59787835e-03 -5.19679848e-05 
 8.91250938e+07 -6.99602991e-03 -4.52976798e-04 
 1.00000000e+08 -7.43654995e-03 -8.12645676e-04 
 1.12201845e+08 -7.89758738e-03 -1.09882925e-03 
 1.25892541e+08 -8.35441605e-03 -1.30175222e-03 
 1.41253754e+08 -8.78687904e-03 -1.42574811e-03 
 1.58489319e+08 -9.18163045e-03 -1.48238785e-03 
 1.77827941e+08 -9.53174479e-03 -1.48576112e-03 
 1.99526231e+08 -9.83530387e-03 -1.44967256e-03 
 2.23872114e+08 -1.00938180e-02 -1.38623036e-03 
 2.51188643e+08 -1.03108610e-02 -1.30532658e-03 
 2.81838293e+08 -1.04910368e-02 -1.21462792e-03 
 3.16227766e+08 -1.06392679e-02 -1.11981937e-03 
 3.54813389e+08 -1.07603474e-02 -1.02494326e-03 
 3.98107171e+08 -1.08586857e-02 -9.32745712e-04 
 4.46683592e+08 -1.09381917e-02 -8.44987705e-04 
 5.01187234e+08 -1.10022398e-02 -7.62704614e-04 
 5.62341325e+08 -1.10536868e-02 -6.86412469e-04 
 6.30957344e+08 -1.10949172e-02 -6.16266303e-04 
 7.07945784e+08 -1.11278995e-02 -5.52178442e-04 
 7.94328235e+08 -1.11542454e-02 -4.93904889e-04 
 8.91250938e+08 -1.11752659e-02 -4.41107116e-04 
 1.00000000e+09 -1.11920218e-02 -3.93395367e-04 
